
T0420 000:686 SEGGER J-Link V4.86b Log File (0002ms, 0336ms total)
T0420 000:686 DLL Compiled: Jun 27 2014 20:11:00 (0002ms, 0336ms total)
T0420 000:686 Logging started @ 2018-05-24 23:25 (0002ms, 0336ms total)
T0420 000:688 JLINK_SetWarnOutHandler(...) (0001ms, 0337ms total)
T0420 000:689 JLINK_OpenEx(...)
Firmware: J-Link ARM V8 compiled Nov 25 2013 19:20:08
Hardware: V8.00
Feature(s): RDI,FlashDL,FlashBP,JFlash,GDBFull  returns O.K. (0276ms, 0613ms total)
T0420 000:965 JLINK_SetErrorOutHandler(...) (0000ms, 0613ms total)
T0420 000:965 JLINK_TIF_Select(JLINKARM_TIF_JTAG)  returns 0x00 (0017ms, 0630ms total)
T0420 000:982 JLINK_SetSpeed(2000) (0002ms, 0632ms total)
T0420 000:984 JLINK_GetHardwareVersion()  returns 0x13880 (0000ms, 0632ms total)
T0420 000:984 JLINK_GetDLLVersion()  returns 48602 (0000ms, 0632ms total)
T0420 000:984 JLINK_GetFirmwareString(...) (0000ms, 0632ms total)
T0420 000:988 JLINK_GetDLLVersion()  returns 48602 (0000ms, 0632ms total)
T0420 000:988 JLINK_GetCompileDateTime() (0000ms, 0632ms total)
T0420 000:991 JLINK_GetFirmwareString(...) (0001ms, 0633ms total)
T0420 000:994 JLINK_GetHardwareVersion()  returns 0x13880 (0001ms, 0634ms total)
T0420 001:015 JLINK_GetIdData(...) >0x2F8 JTAG>TotalIRLen = 9, IRPrint = 0x0011 >0x30 JTAG> >0x210 JTAG> >0x70 JTAG> >0x40 JTAG> >0x40 JTAG> >0x40 JTAG> >0x50 JTAG> >0x80 JTAG> >0x40 JTAG> >0x30 JTAG> >0x40 JTAG> >0x40 JTAG> >0x30 JTAG> >0x40 JTAG> >0x50 JTAG>Found Cortex-M3 r1p1, Little endian. -- CPU_WriteMem(4 bytes @ 0xE0002000) -- CPU_ReadMem(4 bytes @ 0xE000EDF0) -- CPU_WriteMem(4 bytes @ 0xE000EDF0) -- CPU_ReadMem(4 bytes @ 0xE0002000)FPUnit: 6 code (BP) slots and 2 literal slots
 -- CPU_ReadMem(4 bytes @ 0xE000EDFC) -- CPU_WriteMem(4 bytes @ 0xE000EDFC) -- CPU_ReadMem(4 bytes @ 0xE0001000) -- CPU_WriteMem(4 bytes @ 0xE0001000) -- CPU_ReadMem(4 bytes @ 0xE00FF010)TPIU fitted. -- CPU_ReadMem(4 bytes @ 0xE00FF014)ETM fitted. -- CPU_ReadMem(4 bytes @ 0xE00FF018) ScanLen=9 NumDevices=2 aId[0]=0x3BA00477 aIrRead[0]=0 aScanLen[0]=0 aScanRead[0]=0 (0061ms, 0695ms total)
T0420 001:076 JLINK_JTAG_GetDeviceID(DeviceIndex = 0)  returns 0x3BA00477 (0000ms, 0695ms total)
T0420 001:076 JLINK_JTAG_GetDeviceInfo(DeviceIndex = 0)  returns 0x00 (0000ms, 0695ms total)
T0420 001:076 JLINK_JTAG_GetDeviceID(DeviceIndex = 1)  returns 0x6418041 (0000ms, 0695ms total)
T0420 001:076 JLINK_JTAG_GetDeviceInfo(DeviceIndex = 1)  returns 0x00 (0000ms, 0695ms total)
T0420 001:077 JLINK_ReadMem (0xE00FF000, 0x0018 Bytes, ...) -- CPU is running -- CPU_ReadMem(24 bytes @ 0xE00FF000) - Data: 03 F0 F0 FF 03 20 F0 FF 03 30 F0 FF 03 10 F0 FF ...  returns 0x00 (0006ms, 0701ms total)
T0420 001:083 JLINK_ReadMemU32(0xE000ED00, 0x0001 Items, ...) -- CPU is running -- CPU_ReadMem(4 bytes @ 0xE000ED00) - Data: 31 C2 1F 41  returns 0x01 (0002ms, 0703ms total)
T0420 001:085 JLINK_Reset() -- CPU is running -- CPU_WriteMem(4 bytes @ 0xE000EDF0) -- CPU is running -- CPU_WriteMem(4 bytes @ 0xE000EDFC) -- CPU is running -- CPU_WriteMem(4 bytes @ 0xE000ED0C) -- CPU is running -- CPU_ReadMem(4 bytes @ 0xE000EDF0) -- CPU is running -- CPU_ReadMem(4 bytes @ 0xE000EDF0) -- CPU is running -- CPU_WriteMem(4 bytes @ 0xE000EDF0) -- CPU is running -- CPU_WriteMem(4 bytes @ 0xE000EDFC) -- CPU is running -- CPU_ReadMem(4 bytes @ 0xE000EDF0) >0x80 JTAG> >0x40 JTAG> >0x30 JTAG>
 >0x40 JTAG> >0x50 JTAG> >0x40 JTAG> -- CPU_WriteMem(4 bytes @ 0xE000EDFC) -- CPU_WriteMem(4 bytes @ 0xE0001028) -- CPU_WriteMem(4 bytes @ 0xE0001038) -- CPU_WriteMem(4 bytes @ 0xE0001048) -- CPU_WriteMem(4 bytes @ 0xE0001058) -- CPU_WriteMem(4 bytes @ 0xE0002000) -- CPU_ReadMem(4 bytes @ 0xE000EDFC) -- CPU_ReadMem(4 bytes @ 0xE0001000) (0044ms, 0747ms total)
T0420 001:129 JLINK_Halt()  returns 0x00 (0000ms, 0747ms total)
T0420 001:129 JLINK_IsHalted()  returns TRUE (0000ms, 0747ms total)
T0420 001:129 JLINK_ReadMemU32(0xE000EDF0, 0x0001 Items, ...) -- CPU_ReadMem(4 bytes @ 0xE000EDF0) - Data: 03 00 03 00  returns 0x01 (0002ms, 0749ms total)
T0420 001:131 JLINK_WriteU32(0xE000EDF0, 0xA05F0003) -- CPU_WriteMem(4 bytes @ 0xE000EDF0)  returns 0x00 (0001ms, 0750ms total)
T0420 001:132 JLINK_WriteU32(0xE000EDFC, 0x01000000) -- CPU_WriteMem(4 bytes @ 0xE000EDFC)  returns 0x00 (0001ms, 0751ms total)
T0420 001:133 JLINK_ReadMemU32(0xE0002000, 0x0001 Items, ...) -- CPU_ReadMem(4 bytes @ 0xE0002000) - Data: 61 02 00 00  returns 0x01 (0001ms, 0752ms total)
T0420 001:134 JLINK_ReadMemU32(0xE0001000, 0x0001 Items, ...) -- CPU_ReadMem(4 bytes @ 0xE0001000) - Data: 01 00 00 40  returns 0x01 (0002ms, 0754ms total)
T0420 001:143 JLINK_ExecCommand("Device = STM32F107VC", ...)Device "STM32F107VC" selected (256 KB flash, 64 KB RAM).  returns 0x00 (0004ms, 0758ms total)
T0420 001:147 JLINK_GetHWStatus(...)  returns 0x00 (0002ms, 0760ms total)
T0420 001:166 JLINK_GetNumBPUnits(Type = 0xFFFFFF00)  returns 0x06 (0000ms, 0760ms total)
T0420 001:166 JLINK_GetNumBPUnits(Type = 0xF0)  returns 0x2000 (0000ms, 0760ms total)
T0420 001:166 JLINK_GetNumWPUnits()  returns 0x04 (0000ms, 0760ms total)
T0420 001:188 JLINK_GetSpeed()  returns 0x7D0 (0000ms, 0760ms total)
T0420 001:207 JLINK_ReadMemU32(0xE000E004, 0x0001 Items, ...) -- CPU_ReadMem(4 bytes @ 0xE000E004) - Data: 02 00 00 00  returns 0x01 (0003ms, 0763ms total)
T0420 001:210 JLINK_WriteMem(0xE0001000, 0x001C Bytes, ...) - Data: 01 00 00 00 00 00 00 00 00 00 00 00 00 00 00 00 ... -- CPU_WriteMem(28 bytes @ 0xE0001000)  returns 0x1C (0002ms, 0765ms total)
T0420 001:212 JLINK_ReadMem (0xE0001000, 0x001C Bytes, ...) -- CPU_ReadMem(28 bytes @ 0xE0001000) - Data: 01 00 00 40 00 00 00 00 00 00 00 00 00 00 00 00 ...  returns 0x00 (0002ms, 0767ms total)
T0420 001:214 JLINK_SetResetType(JLINKARM_RESET_TYPE_NORMAL)  returns JLINKARM_RESET_TYPE_NORMAL (0000ms, 0767ms total)
T0420 001:214 JLINK_Reset() -- CPU_WriteMem(4 bytes @ 0xE000EDF0) -- CPU_WriteMem(4 bytes @ 0xE000EDFC) -- CPU_WriteMem(4 bytes @ 0xE000ED0C) -- CPU_ReadMem(4 bytes @ 0xE000EDF0) -- CPU_ReadMem(4 bytes @ 0xE000EDF0) -- CPU_WriteMem(4 bytes @ 0xE000EDF0) -- CPU_WriteMem(4 bytes @ 0xE000EDFC) -- CPU is running -- CPU_ReadMem(4 bytes @ 0xE000EDF0) >0x80 JTAG> >0x40 JTAG> >0x30 JTAG> >0x40 JTAG> >0x50 JTAG> >0x40 JTAG> -- CPU_WriteMem(4 bytes @ 0xE000EDFC) -- CPU_WriteMem(4 bytes @ 0xE0001028)
 -- CPU_WriteMem(4 bytes @ 0xE0001038) -- CPU_WriteMem(4 bytes @ 0xE0001048) -- CPU_WriteMem(4 bytes @ 0xE0001058) -- CPU_WriteMem(4 bytes @ 0xE0002000) -- CPU_ReadMem(4 bytes @ 0xE000EDFC) -- CPU_ReadMem(4 bytes @ 0xE0001000) (0044ms, 0811ms total)
T0420 001:258 JLINK_Halt()  returns 0x00 (0000ms, 0811ms total)
T0420 001:258 JLINK_IsHalted()  returns TRUE (0000ms, 0811ms total)
T0420 001:264 JLINK_WriteMem(0x20000000, 0x0164 Bytes, ...) - Data: 00 BE 0A E0 0D 78 2D 06 68 40 08 24 40 00 00 D3 ... -- CPU_WriteMem(356 bytes @ 0x20000000)  returns 0x164 (0005ms, 0816ms total)
T0420 001:269 JLINK_ReadMem (0x20000000, 0x0164 Bytes, ...) -- CPU_ReadMem(384 bytes @ 0x20000000) -- Updating C cache (384 bytes @ 0x20000000) -- Read from C cache (356 bytes @ 0x20000000) - Data: 00 BE 0A E0 0D 78 2D 06 68 40 08 24 40 00 00 D3 ...  returns 0x00 (0004ms, 0820ms total)
T0420 001:273 JLINK_WriteReg(R0, 0x08000000)  returns 0x00 (0000ms, 0820ms total)
T0420 001:273 JLINK_WriteReg(R1, 0x017D7840)  returns 0x00 (0000ms, 0820ms total)
T0420 001:273 JLINK_WriteReg(R2, 0x00000001)  returns 0x00 (0000ms, 0820ms total)
T0420 001:273 JLINK_WriteReg(R3, 0x00000000)  returns 0x00 (0000ms, 0820ms total)
T0420 001:273 JLINK_WriteReg(R4, 0x00000000)  returns 0x00 (0001ms, 0821ms total)
T0420 001:274 JLINK_WriteReg(R5, 0x00000000)  returns 0x00 (0000ms, 0821ms total)
T0420 001:274 JLINK_WriteReg(R6, 0x00000000)  returns 0x00 (0000ms, 0821ms total)
T0420 001:274 JLINK_WriteReg(R7, 0x00000000)  returns 0x00 (0000ms, 0821ms total)
T0420 001:274 JLINK_WriteReg(R8, 0x00000000)  returns 0x00 (0000ms, 0821ms total)
T0420 001:274 JLINK_WriteReg(R9, 0x20000160)  returns 0x00 (0000ms, 0821ms total)
T0420 001:274 JLINK_WriteReg(R10, 0x00000000)  returns 0x00 (0000ms, 0821ms total)
T0420 001:274 JLINK_WriteReg(R11, 0x00000000)  returns 0x00 (0000ms, 0821ms total)
T0420 001:274 JLINK_WriteReg(R12, 0x00000000)  returns 0x00 (0001ms, 0822ms total)
T0420 001:275 JLINK_WriteReg(R13 (SP), 0x20000800)  returns 0x00 (0000ms, 0822ms total)
T0420 001:275 JLINK_WriteReg(R14, 0x20000001)  returns 0x00 (0000ms, 0822ms total)
T0420 001:275 JLINK_WriteReg(R15 (PC), 0x20000038)  returns 0x00 (0000ms, 0822ms total)
T0420 001:275 JLINK_WriteReg(XPSR, 0x01000000)  returns 0x00 (0000ms, 0822ms total)
T0420 001:275 JLINK_WriteReg(MSP, 0x20000800)  returns 0x00 (0000ms, 0822ms total)
T0420 001:275 JLINK_WriteReg(PSP, 0x20000800)  returns 0x00 (0000ms, 0822ms total)
T0420 001:275 JLINK_WriteReg(CFBP, 0x00000000)  returns 0x00 (0000ms, 0822ms total)
T0420 001:275 JLINK_SetBPEx(Addr = 0x20000000, Type = 0xFFFFFFF2) -- CPU_ReadMem(2 bytes @ 0x20000000)  returns 0x00000001 (0002ms, 0824ms total)
T0420 001:277 JLINK_Go() -- CPU_WriteMem(2 bytes @ 0x20000000) -- CPU_WriteMem(4 bytes @ 0xE0002008) -- CPU_WriteMem(4 bytes @ 0xE000200C) -- CPU_WriteMem(4 bytes @ 0xE0002010) -- CPU_WriteMem(4 bytes @ 0xE0002014) -- CPU_WriteMem(4 bytes @ 0xE0002018) -- CPU_WriteMem(4 bytes @ 0xE000201C) -- CPU_WriteMem(4 bytes @ 0xE0001004) (0015ms, 0839ms total)
T0420 001:292 JLINK_IsHalted() -- CPU_ReadMem(2 bytes @ 0x20000000)  returns TRUE (0007ms, 0846ms total)
T0420 001:299 JLINK_ReadReg(R15 (PC))  returns 0x20000000 (0000ms, 0839ms total)
T0420 001:299 JLINK_ClrBPEx(BPHandle = 0x00000001)  returns 0x00 (0000ms, 0839ms total)
T0420 001:299 JLINK_ReadReg(R0)  returns 0x00000000 (0000ms, 0839ms total)
T0420 001:300 JLINK_WriteReg(R0, 0x08000000)  returns 0x00 (0000ms, 0839ms total)
T0420 001:300 JLINK_WriteReg(R1, 0x017D7840)  returns 0x00 (0001ms, 0840ms total)
T0420 001:301 JLINK_WriteReg(R2, 0x00000001)  returns 0x00 (0000ms, 0840ms total)
T0420 001:301 JLINK_WriteReg(R3, 0x00000000)  returns 0x00 (0000ms, 0840ms total)
T0420 001:301 JLINK_WriteReg(R4, 0x00000000)  returns 0x00 (0000ms, 0840ms total)
T0420 001:301 JLINK_WriteReg(R5, 0x00000000)  returns 0x00 (0000ms, 0840ms total)
T0420 001:301 JLINK_WriteReg(R6, 0x00000000)  returns 0x00 (0000ms, 0840ms total)
T0420 001:301 JLINK_WriteReg(R7, 0x00000000)  returns 0x00 (0000ms, 0840ms total)
T0420 001:302 JLINK_WriteReg(R8, 0x00000000)  returns 0x00 (0000ms, 0840ms total)
T0420 001:302 JLINK_WriteReg(R9, 0x20000160)  returns 0x00 (0000ms, 0840ms total)
T0420 001:302 JLINK_WriteReg(R10, 0x00000000)  returns 0x00 (0000ms, 0840ms total)
T0420 001:302 JLINK_WriteReg(R11, 0x00000000)  returns 0x00 (0000ms, 0840ms total)
T0420 001:302 JLINK_WriteReg(R12, 0x00000000)  returns 0x00 (0000ms, 0840ms total)
T0420 001:302 JLINK_WriteReg(R13 (SP), 0x20000800)  returns 0x00 (0000ms, 0840ms total)
T0420 001:302 JLINK_WriteReg(R14, 0x20000001)  returns 0x00 (0000ms, 0840ms total)
T0420 001:302 JLINK_WriteReg(R15 (PC), 0x2000007C)  returns 0x00 (0000ms, 0840ms total)
T0420 001:302 JLINK_WriteReg(XPSR, 0x01000000)  returns 0x00 (0001ms, 0841ms total)
T0420 001:303 JLINK_WriteReg(MSP, 0x20000800)  returns 0x00 (0000ms, 0841ms total)
T0420 001:303 JLINK_WriteReg(PSP, 0x20000800)  returns 0x00 (0000ms, 0841ms total)
T0420 001:303 JLINK_WriteReg(CFBP, 0x00000000)  returns 0x00 (0000ms, 0841ms total)
T0420 001:303 JLINK_SetBPEx(Addr = 0x20000000, Type = 0xFFFFFFF2)  returns 0x00000002 (0000ms, 0841ms total)
T0420 001:303 JLINK_Go() (0003ms, 0844ms total)
T0420 001:306 JLINK_IsHalted()  returns FALSE (0001ms, 0845ms total)
T0420 001:357 JLINK_IsHalted() -- CPU_ReadMem(2 bytes @ 0x20000000)  returns TRUE (0007ms, 0851ms total)
T0420 001:364 JLINK_ReadReg(R15 (PC))  returns 0x20000000 (0000ms, 0844ms total)
T0420 001:364 JLINK_ClrBPEx(BPHandle = 0x00000002)  returns 0x00 (0000ms, 0844ms total)
T0420 001:364 JLINK_ReadReg(R0)  returns 0x00000000 (0000ms, 0844ms total)
T0420 001:418 JLINK_WriteReg(R0, 0x00000001)  returns 0x00 (0000ms, 0844ms total)
T0420 001:418 JLINK_WriteReg(R1, 0x017D7840)  returns 0x00 (0000ms, 0844ms total)
T0420 001:418 JLINK_WriteReg(R2, 0x00000001)  returns 0x00 (0000ms, 0844ms total)
T0420 001:418 JLINK_WriteReg(R3, 0x00000000)  returns 0x00 (0000ms, 0844ms total)
T0420 001:418 JLINK_WriteReg(R4, 0x00000000)  returns 0x00 (0000ms, 0844ms total)
T0420 001:418 JLINK_WriteReg(R5, 0x00000000)  returns 0x00 (0000ms, 0844ms total)
T0420 001:418 JLINK_WriteReg(R6, 0x00000000)  returns 0x00 (0001ms, 0845ms total)
T0420 001:419 JLINK_WriteReg(R7, 0x00000000)  returns 0x00 (0000ms, 0845ms total)
T0420 001:419 JLINK_WriteReg(R8, 0x00000000)  returns 0x00 (0000ms, 0845ms total)
T0420 001:419 JLINK_WriteReg(R9, 0x20000160)  returns 0x00 (0000ms, 0845ms total)
T0420 001:419 JLINK_WriteReg(R10, 0x00000000)  returns 0x00 (0000ms, 0845ms total)
T0420 001:419 JLINK_WriteReg(R11, 0x00000000)  returns 0x00 (0000ms, 0845ms total)
T0420 001:419 JLINK_WriteReg(R12, 0x00000000)  returns 0x00 (0000ms, 0845ms total)
T0420 001:419 JLINK_WriteReg(R13 (SP), 0x20000800)  returns 0x00 (0000ms, 0845ms total)
T0420 001:419 JLINK_WriteReg(R14, 0x20000001)  returns 0x00 (0000ms, 0845ms total)
T0420 001:419 JLINK_WriteReg(R15 (PC), 0x2000006A)  returns 0x00 (0001ms, 0846ms total)
T0420 001:420 JLINK_WriteReg(XPSR, 0x01000000)  returns 0x00 (0000ms, 0846ms total)
T0420 001:420 JLINK_WriteReg(MSP, 0x20000800)  returns 0x00 (0000ms, 0846ms total)
T0420 001:420 JLINK_WriteReg(PSP, 0x20000800)  returns 0x00 (0000ms, 0846ms total)
T0420 001:420 JLINK_WriteReg(CFBP, 0x00000000)  returns 0x00 (0000ms, 0846ms total)
T0420 001:420 JLINK_SetBPEx(Addr = 0x20000000, Type = 0xFFFFFFF2)  returns 0x00000003 (0000ms, 0846ms total)
T0420 001:420 JLINK_Go() (0004ms, 0850ms total)
T0420 001:424 JLINK_IsHalted() -- CPU_ReadMem(2 bytes @ 0x20000000)  returns TRUE (0007ms, 0857ms total)
T0420 001:431 JLINK_ReadReg(R15 (PC))  returns 0x20000000 (0000ms, 0850ms total)
T0420 001:431 JLINK_ClrBPEx(BPHandle = 0x00000003)  returns 0x00 (0000ms, 0850ms total)
T0420 001:431 JLINK_ReadReg(R0)  returns 0x00000000 (0000ms, 0850ms total)
T0420 001:439 JLINK_WriteMem(0x20000000, 0x0164 Bytes, ...) - Data: 00 BE 0A E0 0D 78 2D 06 68 40 08 24 40 00 00 D3 ... -- CPU_WriteMem(356 bytes @ 0x20000000)  returns 0x164 (0004ms, 0854ms total)
T0420 001:443 JLINK_ReadMem (0x20000000, 0x0164 Bytes, ...) -- CPU_ReadMem(384 bytes @ 0x20000000) -- Updating C cache (384 bytes @ 0x20000000) -- Read from C cache (356 bytes @ 0x20000000) - Data: 00 BE 0A E0 0D 78 2D 06 68 40 08 24 40 00 00 D3 ...  returns 0x00 (0004ms, 0858ms total)
T0420 001:447 JLINK_WriteReg(R0, 0x08000000)  returns 0x00 (0000ms, 0858ms total)
T0420 001:447 JLINK_WriteReg(R1, 0x017D7840)  returns 0x00 (0000ms, 0858ms total)
T0420 001:447 JLINK_WriteReg(R2, 0x00000002)  returns 0x00 (0000ms, 0858ms total)
T0420 001:447 JLINK_WriteReg(R3, 0x00000000)  returns 0x00 (0000ms, 0858ms total)
T0420 001:447 JLINK_WriteReg(R4, 0x00000000)  returns 0x00 (0001ms, 0859ms total)
T0420 001:448 JLINK_WriteReg(R5, 0x00000000)  returns 0x00 (0000ms, 0859ms total)
T0420 001:448 JLINK_WriteReg(R6, 0x00000000)  returns 0x00 (0000ms, 0859ms total)
T0420 001:448 JLINK_WriteReg(R7, 0x00000000)  returns 0x00 (0000ms, 0859ms total)
T0420 001:448 JLINK_WriteReg(R8, 0x00000000)  returns 0x00 (0000ms, 0859ms total)
T0420 001:448 JLINK_WriteReg(R9, 0x20000160)  returns 0x00 (0001ms, 0860ms total)
T0420 001:449 JLINK_WriteReg(R10, 0x00000000)  returns 0x00 (0000ms, 0860ms total)
T0420 001:449 JLINK_WriteReg(R11, 0x00000000)  returns 0x00 (0000ms, 0860ms total)
T0420 001:449 JLINK_WriteReg(R12, 0x00000000)  returns 0x00 (0000ms, 0860ms total)
T0420 001:449 JLINK_WriteReg(R13 (SP), 0x20000800)  returns 0x00 (0000ms, 0860ms total)
T0420 001:449 JLINK_WriteReg(R14, 0x20000001)  returns 0x00 (0000ms, 0860ms total)
T0420 001:449 JLINK_WriteReg(R15 (PC), 0x20000038)  returns 0x00 (0000ms, 0860ms total)
T0420 001:449 JLINK_WriteReg(XPSR, 0x01000000)  returns 0x00 (0000ms, 0860ms total)
T0420 001:449 JLINK_WriteReg(MSP, 0x20000800)  returns 0x00 (0001ms, 0861ms total)
T0420 001:450 JLINK_WriteReg(PSP, 0x20000800)  returns 0x00 (0000ms, 0861ms total)
T0420 001:450 JLINK_WriteReg(CFBP, 0x00000000)  returns 0x00 (0000ms, 0861ms total)
T0420 001:450 JLINK_SetBPEx(Addr = 0x20000000, Type = 0xFFFFFFF2) -- CPU_ReadMem(2 bytes @ 0x20000000)  returns 0x00000004 (0001ms, 0862ms total)
T0420 001:451 JLINK_Go() -- CPU_WriteMem(2 bytes @ 0x20000000) (0004ms, 0866ms total)
T0420 001:455 JLINK_IsHalted() -- CPU_ReadMem(2 bytes @ 0x20000000)  returns TRUE (0008ms, 0874ms total)
T0420 001:463 JLINK_ReadReg(R15 (PC))  returns 0x20000000 (0000ms, 0866ms total)
T0420 001:463 JLINK_ClrBPEx(BPHandle = 0x00000004)  returns 0x00 (0000ms, 0866ms total)
T0420 001:463 JLINK_ReadReg(R0)  returns 0x00000000 (0000ms, 0866ms total)
T0420 001:464 JLINK_WriteMem(0x20000164, 0x0400 Bytes, ...) - Data: D8 C9 00 20 89 01 00 08 A1 19 00 08 7D 12 00 08 ... -- CPU_WriteMem(1024 bytes @ 0x20000164)  returns 0x400 (0007ms, 0873ms total)
T0420 001:471 JLINK_ReadMem (0x20000164, 0x0400 Bytes, ...) -- CPU_ReadMem(1088 bytes @ 0x20000140) -- Updating C cache (1088 bytes @ 0x20000140) -- Read from C cache (1024 bytes @ 0x20000164) - Data: D8 C9 00 20 89 01 00 08 A1 19 00 08 7D 12 00 08 ...  returns 0x00 (0008ms, 0881ms total)
T0420 001:479 JLINK_WriteReg(R0, 0x08000000)  returns 0x00 (0000ms, 0881ms total)
T0420 001:479 JLINK_WriteReg(R1, 0x00000400)  returns 0x00 (0000ms, 0881ms total)
T0420 001:479 JLINK_WriteReg(R2, 0x20000164)  returns 0x00 (0000ms, 0881ms total)
T0420 001:479 JLINK_WriteReg(R3, 0x00000000)  returns 0x00 (0000ms, 0881ms total)
T0420 001:479 JLINK_WriteReg(R4, 0x00000000)  returns 0x00 (0000ms, 0881ms total)
T0420 001:480 JLINK_WriteReg(R5, 0x00000000)  returns 0x00 (0000ms, 0882ms total)
T0420 001:480 JLINK_WriteReg(R6, 0x00000000)  returns 0x00 (0000ms, 0882ms total)
T0420 001:480 JLINK_WriteReg(R7, 0x00000000)  returns 0x00 (0000ms, 0882ms total)
T0420 001:480 JLINK_WriteReg(R8, 0x00000000)  returns 0x00 (0000ms, 0882ms total)
T0420 001:480 JLINK_WriteReg(R9, 0x20000160)  returns 0x00 (0000ms, 0882ms total)
T0420 001:480 JLINK_WriteReg(R10, 0x00000000)  returns 0x00 (0000ms, 0882ms total)
T0420 001:480 JLINK_WriteReg(R11, 0x00000000)  returns 0x00 (0000ms, 0882ms total)
T0420 001:480 JLINK_WriteReg(R12, 0x00000000)  returns 0x00 (0000ms, 0882ms total)
T0420 001:480 JLINK_WriteReg(R13 (SP), 0x20000800)  returns 0x00 (0001ms, 0883ms total)
T0420 001:481 JLINK_WriteReg(R14, 0x20000001)  returns 0x00 (0000ms, 0883ms total)
T0420 001:481 JLINK_WriteReg(R15 (PC), 0x200000F4)  returns 0x00 (0000ms, 0883ms total)
T0420 001:481 JLINK_WriteReg(XPSR, 0x01000000)  returns 0x00 (0000ms, 0883ms total)
T0420 001:481 JLINK_WriteReg(MSP, 0x20000800)  returns 0x00 (0000ms, 0883ms total)
T0420 001:481 JLINK_WriteReg(PSP, 0x20000800)  returns 0x00 (0000ms, 0883ms total)
T0420 001:481 JLINK_WriteReg(CFBP, 0x00000000)  returns 0x00 (0000ms, 0883ms total)
T0420 001:481 JLINK_SetBPEx(Addr = 0x20000000, Type = 0xFFFFFFF2)  returns 0x00000005 (0000ms, 0883ms total)
T0420 001:481 JLINK_Go() (0003ms, 0886ms total)
T0420 001:484 JLINK_IsHalted()  returns FALSE (0001ms, 0887ms total)
T0420 001:535 JLINK_IsHalted() -- CPU_ReadMem(2 bytes @ 0x20000000)  returns TRUE (0007ms, 0893ms total)
T0420 001:542 JLINK_ReadReg(R15 (PC))  returns 0x20000000 (0000ms, 0886ms total)
T0420 001:542 JLINK_ClrBPEx(BPHandle = 0x00000005)  returns 0x00 (0000ms, 0886ms total)
T0420 001:542 JLINK_ReadReg(R0)  returns 0x00000000 (0000ms, 0886ms total)
T0420 001:543 JLINK_WriteMem(0x20000164, 0x0400 Bytes, ...) - Data: 00 EB 04 13 4F F4 80 15 1D 60 C4 EB 44 15 05 EB ... -- CPU_WriteMem(1024 bytes @ 0x20000164)  returns 0x400 (0008ms, 0894ms total)
T0420 001:551 JLINK_ReadMem (0x20000164, 0x0400 Bytes, ...) -- CPU_ReadMem(1088 bytes @ 0x20000140) -- Updating C cache (1088 bytes @ 0x20000140) -- Read from C cache (1024 bytes @ 0x20000164) - Data: 00 EB 04 13 4F F4 80 15 1D 60 C4 EB 44 15 05 EB ...  returns 0x00 (0008ms, 0902ms total)
T0420 001:559 JLINK_WriteReg(R0, 0x08000400)  returns 0x00 (0000ms, 0902ms total)
T0420 001:559 JLINK_WriteReg(R1, 0x00000400)  returns 0x00 (0000ms, 0902ms total)
T0420 001:559 JLINK_WriteReg(R2, 0x20000164)  returns 0x00 (0000ms, 0902ms total)
T0420 001:559 JLINK_WriteReg(R3, 0x00000000)  returns 0x00 (0000ms, 0902ms total)
T0420 001:559 JLINK_WriteReg(R4, 0x00000000)  returns 0x00 (0012ms, 0914ms total)
T0420 001:571 JLINK_WriteReg(R5, 0x00000000)  returns 0x00 (0000ms, 0914ms total)
T0420 001:571 JLINK_WriteReg(R6, 0x00000000)  returns 0x00 (0000ms, 0914ms total)
T0420 001:571 JLINK_WriteReg(R7, 0x00000000)  returns 0x00 (0000ms, 0914ms total)
T0420 001:571 JLINK_WriteReg(R8, 0x00000000)  returns 0x00 (0000ms, 0914ms total)
T0420 001:571 JLINK_WriteReg(R9, 0x20000160)  returns 0x00 (0000ms, 0914ms total)
T0420 001:571 JLINK_WriteReg(R10, 0x00000000)  returns 0x00 (0000ms, 0914ms total)
T0420 001:571 JLINK_WriteReg(R11, 0x00000000)  returns 0x00 (0000ms, 0914ms total)
T0420 001:571 JLINK_WriteReg(R12, 0x00000000)  returns 0x00 (0000ms, 0914ms total)
T0420 001:572 JLINK_WriteReg(R13 (SP), 0x20000800)  returns 0x00 (0000ms, 0915ms total)
T0420 001:572 JLINK_WriteReg(R14, 0x20000001)  returns 0x00 (0000ms, 0915ms total)
T0420 001:572 JLINK_WriteReg(R15 (PC), 0x200000F4)  returns 0x00 (0000ms, 0915ms total)
T0420 001:572 JLINK_WriteReg(XPSR, 0x01000000)  returns 0x00 (0000ms, 0915ms total)
T0420 001:572 JLINK_WriteReg(MSP, 0x20000800)  returns 0x00 (0000ms, 0915ms total)
T0420 001:572 JLINK_WriteReg(PSP, 0x20000800)  returns 0x00 (0000ms, 0915ms total)
T0420 001:572 JLINK_WriteReg(CFBP, 0x00000000)  returns 0x00 (0000ms, 0915ms total)
T0420 001:572 JLINK_SetBPEx(Addr = 0x20000000, Type = 0xFFFFFFF2)  returns 0x00000006 (0000ms, 0915ms total)
T0420 001:572 JLINK_Go() (0004ms, 0919ms total)
T0420 001:576 JLINK_IsHalted()  returns FALSE (0003ms, 0922ms total)
T0420 001:629 JLINK_IsHalted() -- CPU_ReadMem(2 bytes @ 0x20000000)  returns TRUE (0007ms, 0926ms total)
T0420 001:636 JLINK_ReadReg(R15 (PC))  returns 0x20000000 (0000ms, 0919ms total)
T0420 001:636 JLINK_ClrBPEx(BPHandle = 0x00000006)  returns 0x00 (0000ms, 0919ms total)
T0420 001:636 JLINK_ReadReg(R0)  returns 0x00000000 (0000ms, 0919ms total)
T0420 001:637 JLINK_WriteMem(0x20000164, 0x0400 Bytes, ...) - Data: 43 F0 01 03 0A 48 03 61 00 BF 64 1C 08 48 03 69 ... -- CPU_WriteMem(1024 bytes @ 0x20000164)  returns 0x400 (0008ms, 0927ms total)
T0420 001:645 JLINK_ReadMem (0x20000164, 0x0400 Bytes, ...) -- CPU_ReadMem(1088 bytes @ 0x20000140) -- Updating C cache (1088 bytes @ 0x20000140) -- Read from C cache (1024 bytes @ 0x20000164) - Data: 43 F0 01 03 0A 48 03 61 00 BF 64 1C 08 48 03 69 ...  returns 0x00 (0008ms, 0935ms total)
T0420 001:653 JLINK_WriteReg(R0, 0x08000800)  returns 0x00 (0000ms, 0935ms total)
T0420 001:653 JLINK_WriteReg(R1, 0x00000400)  returns 0x00 (0000ms, 0935ms total)
T0420 001:653 JLINK_WriteReg(R2, 0x20000164)  returns 0x00 (0000ms, 0935ms total)
T0420 001:653 JLINK_WriteReg(R3, 0x00000000)  returns 0x00 (0000ms, 0935ms total)
T0420 001:653 JLINK_WriteReg(R4, 0x00000000)  returns 0x00 (0000ms, 0935ms total)
T0420 001:653 JLINK_WriteReg(R5, 0x00000000)  returns 0x00 (0001ms, 0936ms total)
T0420 001:654 JLINK_WriteReg(R6, 0x00000000)  returns 0x00 (0000ms, 0936ms total)
T0420 001:654 JLINK_WriteReg(R7, 0x00000000)  returns 0x00 (0000ms, 0936ms total)
T0420 001:654 JLINK_WriteReg(R8, 0x00000000)  returns 0x00 (0000ms, 0936ms total)
T0420 001:654 JLINK_WriteReg(R9, 0x20000160)  returns 0x00 (0000ms, 0936ms total)
T0420 001:654 JLINK_WriteReg(R10, 0x00000000)  returns 0x00 (0000ms, 0936ms total)
T0420 001:654 JLINK_WriteReg(R11, 0x00000000)  returns 0x00 (0000ms, 0936ms total)
T0420 001:654 JLINK_WriteReg(R12, 0x00000000)  returns 0x00 (0000ms, 0936ms total)
T0420 001:654 JLINK_WriteReg(R13 (SP), 0x20000800)  returns 0x00 (0003ms, 0939ms total)
T0420 001:657 JLINK_WriteReg(R14, 0x20000001)  returns 0x00 (0000ms, 0939ms total)
T0420 001:657 JLINK_WriteReg(R15 (PC), 0x200000F4)  returns 0x00 (0000ms, 0939ms total)
T0420 001:657 JLINK_WriteReg(XPSR, 0x01000000)  returns 0x00 (0000ms, 0939ms total)
T0420 001:657 JLINK_WriteReg(MSP, 0x20000800)  returns 0x00 (0000ms, 0939ms total)
T0420 001:657 JLINK_WriteReg(PSP, 0x20000800)  returns 0x00 (0000ms, 0939ms total)
T0420 001:657 JLINK_WriteReg(CFBP, 0x00000000)  returns 0x00 (0001ms, 0940ms total)
T0420 001:658 JLINK_SetBPEx(Addr = 0x20000000, Type = 0xFFFFFFF2)  returns 0x00000007 (0000ms, 0940ms total)
T0420 001:658 JLINK_Go() (0003ms, 0943ms total)
T0420 001:661 JLINK_IsHalted()  returns FALSE (0001ms, 0944ms total)
T0420 001:732 JLINK_IsHalted() -- CPU_ReadMem(2 bytes @ 0x20000000)  returns TRUE (0038ms, 0981ms total)
T0420 001:770 JLINK_ReadReg(R15 (PC))  returns 0x20000000 (0000ms, 0943ms total)
T0420 001:770 JLINK_ClrBPEx(BPHandle = 0x00000007)  returns 0x00 (0000ms, 0943ms total)
T0420 001:770 JLINK_ReadReg(R0)  returns 0x00000000 (0000ms, 0943ms total)
T0420 001:771 JLINK_WriteMem(0x20000164, 0x0400 Bytes, ...) - Data: 10 B5 00 23 72 B6 00 23 07 E0 06 4C A0 42 03 D8 ... -- CPU_WriteMem(1024 bytes @ 0x20000164)  returns 0x400 (0010ms, 0953ms total)
T0420 001:781 JLINK_ReadMem (0x20000164, 0x0400 Bytes, ...) -- CPU_ReadMem(1088 bytes @ 0x20000140) -- Updating C cache (1088 bytes @ 0x20000140) -- Read from C cache (1024 bytes @ 0x20000164) - Data: 10 B5 00 23 72 B6 00 23 07 E0 06 4C A0 42 03 D8 ...  returns 0x00 (0008ms, 0961ms total)
T0420 001:789 JLINK_WriteReg(R0, 0x08000C00)  returns 0x00 (0000ms, 0961ms total)
T0420 001:789 JLINK_WriteReg(R1, 0x00000400)  returns 0x00 (0000ms, 0961ms total)
T0420 001:789 JLINK_WriteReg(R2, 0x20000164)  returns 0x00 (0000ms, 0961ms total)
T0420 001:789 JLINK_WriteReg(R3, 0x00000000)  returns 0x00 (0000ms, 0961ms total)
T0420 001:789 JLINK_WriteReg(R4, 0x00000000)  returns 0x00 (0000ms, 0961ms total)
T0420 001:789 JLINK_WriteReg(R5, 0x00000000)  returns 0x00 (0001ms, 0962ms total)
T0420 001:790 JLINK_WriteReg(R6, 0x00000000)  returns 0x00 (0000ms, 0962ms total)
T0420 001:790 JLINK_WriteReg(R7, 0x00000000)  returns 0x00 (0000ms, 0962ms total)
T0420 001:790 JLINK_WriteReg(R8, 0x00000000)  returns 0x00 (0000ms, 0962ms total)
T0420 001:790 JLINK_WriteReg(R9, 0x20000160)  returns 0x00 (0000ms, 0962ms total)
T0420 001:790 JLINK_WriteReg(R10, 0x00000000)  returns 0x00 (0000ms, 0962ms total)
T0420 001:790 JLINK_WriteReg(R11, 0x00000000)  returns 0x00 (0000ms, 0962ms total)
T0420 001:790 JLINK_WriteReg(R12, 0x00000000)  returns 0x00 (0000ms, 0962ms total)
T0420 001:790 JLINK_WriteReg(R13 (SP), 0x20000800)  returns 0x00 (0000ms, 0962ms total)
T0420 001:790 JLINK_WriteReg(R14, 0x20000001)  returns 0x00 (0001ms, 0963ms total)
T0420 001:791 JLINK_WriteReg(R15 (PC), 0x200000F4)  returns 0x00 (0000ms, 0963ms total)
T0420 001:791 JLINK_WriteReg(XPSR, 0x01000000)  returns 0x00 (0000ms, 0963ms total)
T0420 001:791 JLINK_WriteReg(MSP, 0x20000800)  returns 0x00 (0000ms, 0963ms total)
T0420 001:791 JLINK_WriteReg(PSP, 0x20000800)  returns 0x00 (0000ms, 0963ms total)
T0420 001:791 JLINK_WriteReg(CFBP, 0x00000000)  returns 0x00 (0000ms, 0963ms total)
T0420 001:791 JLINK_SetBPEx(Addr = 0x20000000, Type = 0xFFFFFFF2)  returns 0x00000008 (0000ms, 0963ms total)
T0420 001:791 JLINK_Go() (0003ms, 0966ms total)
T0420 001:794 JLINK_IsHalted()  returns FALSE (0001ms, 0967ms total)
T0420 001:845 JLINK_IsHalted() -- CPU_ReadMem(2 bytes @ 0x20000000)  returns TRUE (0007ms, 0973ms total)
T0420 001:852 JLINK_ReadReg(R15 (PC))  returns 0x20000000 (0000ms, 0966ms total)
T0420 001:852 JLINK_ClrBPEx(BPHandle = 0x00000008)  returns 0x00 (0000ms, 0966ms total)
T0420 001:852 JLINK_ReadReg(R0)  returns 0x00000000 (0000ms, 0966ms total)
T0420 001:853 JLINK_WriteMem(0x20000164, 0x0400 Bytes, ...) - Data: 00 F4 80 16 B6 F5 80 1F 06 D1 03 26 06 FA 05 F3 ... -- CPU_WriteMem(1024 bytes @ 0x20000164)  returns 0x400 (0008ms, 0974ms total)
T0420 001:861 JLINK_ReadMem (0x20000164, 0x0400 Bytes, ...) -- CPU_ReadMem(1088 bytes @ 0x20000140) -- Updating C cache (1088 bytes @ 0x20000140) -- Read from C cache (1024 bytes @ 0x20000164) - Data: 00 F4 80 16 B6 F5 80 1F 06 D1 03 26 06 FA 05 F3 ...  returns 0x00 (0008ms, 0982ms total)
T0420 001:869 JLINK_WriteReg(R0, 0x08001000)  returns 0x00 (0000ms, 0982ms total)
T0420 001:869 JLINK_WriteReg(R1, 0x00000400)  returns 0x00 (0000ms, 0982ms total)
T0420 001:869 JLINK_WriteReg(R2, 0x20000164)  returns 0x00 (0000ms, 0982ms total)
T0420 001:869 JLINK_WriteReg(R3, 0x00000000)  returns 0x00 (0000ms, 0982ms total)
T0420 001:869 JLINK_WriteReg(R4, 0x00000000)  returns 0x00 (0000ms, 0982ms total)
T0420 001:869 JLINK_WriteReg(R5, 0x00000000)  returns 0x00 (0001ms, 0983ms total)
T0420 001:870 JLINK_WriteReg(R6, 0x00000000)  returns 0x00 (0000ms, 0983ms total)
T0420 001:870 JLINK_WriteReg(R7, 0x00000000)  returns 0x00 (0000ms, 0983ms total)
T0420 001:870 JLINK_WriteReg(R8, 0x00000000)  returns 0x00 (0000ms, 0983ms total)
T0420 001:870 JLINK_WriteReg(R9, 0x20000160)  returns 0x00 (0000ms, 0983ms total)
T0420 001:870 JLINK_WriteReg(R10, 0x00000000)  returns 0x00 (0000ms, 0983ms total)
T0420 001:870 JLINK_WriteReg(R11, 0x00000000)  returns 0x00 (0000ms, 0983ms total)
T0420 001:870 JLINK_WriteReg(R12, 0x00000000)  returns 0x00 (0000ms, 0983ms total)
T0420 001:870 JLINK_WriteReg(R13 (SP), 0x20000800)  returns 0x00 (0001ms, 0984ms total)
T0420 001:871 JLINK_WriteReg(R14, 0x20000001)  returns 0x00 (0000ms, 0984ms total)
T0420 001:871 JLINK_WriteReg(R15 (PC), 0x200000F4)  returns 0x00 (0000ms, 0984ms total)
T0420 001:871 JLINK_WriteReg(XPSR, 0x01000000)  returns 0x00 (0000ms, 0984ms total)
T0420 001:871 JLINK_WriteReg(MSP, 0x20000800)  returns 0x00 (0000ms, 0984ms total)
T0420 001:871 JLINK_WriteReg(PSP, 0x20000800)  returns 0x00 (0000ms, 0984ms total)
T0420 001:871 JLINK_WriteReg(CFBP, 0x00000000)  returns 0x00 (0000ms, 0984ms total)
T0420 001:871 JLINK_SetBPEx(Addr = 0x20000000, Type = 0xFFFFFFF2)  returns 0x00000009 (0000ms, 0984ms total)
T0420 001:871 JLINK_Go() (0003ms, 0987ms total)
T0420 001:874 JLINK_IsHalted()  returns FALSE (0001ms, 0988ms total)
T0420 001:925 JLINK_IsHalted() -- CPU_ReadMem(2 bytes @ 0x20000000)  returns TRUE (0007ms, 0994ms total)
T0420 001:932 JLINK_ReadReg(R15 (PC))  returns 0x20000000 (0000ms, 0987ms total)
T0420 001:932 JLINK_ClrBPEx(BPHandle = 0x00000009)  returns 0x00 (0000ms, 0987ms total)
T0420 001:932 JLINK_ReadReg(R0)  returns 0x00000000 (0000ms, 0987ms total)
T0420 001:933 JLINK_WriteMem(0x20000164, 0x0400 Bytes, ...) - Data: 04 E0 32 46 29 46 40 46 FF F7 96 FF 20 46 07 F0 ... -- CPU_WriteMem(1024 bytes @ 0x20000164)  returns 0x400 (0008ms, 0995ms total)
T0420 001:941 JLINK_ReadMem (0x20000164, 0x0400 Bytes, ...) -- CPU_ReadMem(1088 bytes @ 0x20000140) -- Updating C cache (1088 bytes @ 0x20000140) -- Read from C cache (1024 bytes @ 0x20000164) - Data: 04 E0 32 46 29 46 40 46 FF F7 96 FF 20 46 07 F0 ...  returns 0x00 (0008ms, 1003ms total)
T0420 001:949 JLINK_WriteReg(R0, 0x08001400)  returns 0x00 (0000ms, 1003ms total)
T0420 001:949 JLINK_WriteReg(R1, 0x00000400)  returns 0x00 (0000ms, 1003ms total)
T0420 001:949 JLINK_WriteReg(R2, 0x20000164)  returns 0x00 (0000ms, 1003ms total)
T0420 001:949 JLINK_WriteReg(R3, 0x00000000)  returns 0x00 (0000ms, 1003ms total)
T0420 001:949 JLINK_WriteReg(R4, 0x00000000)  returns 0x00 (0000ms, 1003ms total)
T0420 001:950 JLINK_WriteReg(R5, 0x00000000)  returns 0x00 (0000ms, 1003ms total)
T0420 001:950 JLINK_WriteReg(R6, 0x00000000)  returns 0x00 (0000ms, 1003ms total)
T0420 001:950 JLINK_WriteReg(R7, 0x00000000)  returns 0x00 (0000ms, 1003ms total)
T0420 001:950 JLINK_WriteReg(R8, 0x00000000)  returns 0x00 (0000ms, 1003ms total)
T0420 001:950 JLINK_WriteReg(R9, 0x20000160)  returns 0x00 (0000ms, 1003ms total)
T0420 001:950 JLINK_WriteReg(R10, 0x00000000)  returns 0x00 (0000ms, 1003ms total)
T0420 001:950 JLINK_WriteReg(R11, 0x00000000)  returns 0x00 (0001ms, 1004ms total)
T0420 001:951 JLINK_WriteReg(R12, 0x00000000)  returns 0x00 (0000ms, 1004ms total)
T0420 001:951 JLINK_WriteReg(R13 (SP), 0x20000800)  returns 0x00 (0000ms, 1004ms total)
T0420 001:951 JLINK_WriteReg(R14, 0x20000001)  returns 0x00 (0000ms, 1004ms total)
T0420 001:951 JLINK_WriteReg(R15 (PC), 0x200000F4)  returns 0x00 (0000ms, 1004ms total)
T0420 001:951 JLINK_WriteReg(XPSR, 0x01000000)  returns 0x00 (0000ms, 1004ms total)
T0420 001:951 JLINK_WriteReg(MSP, 0x20000800)  returns 0x00 (0000ms, 1004ms total)
T0420 001:951 JLINK_WriteReg(PSP, 0x20000800)  returns 0x00 (0000ms, 1004ms total)
T0420 001:951 JLINK_WriteReg(CFBP, 0x00000000)  returns 0x00 (0001ms, 1005ms total)
T0420 001:952 JLINK_SetBPEx(Addr = 0x20000000, Type = 0xFFFFFFF2)  returns 0x0000000A (0000ms, 1005ms total)
T0420 001:952 JLINK_Go() (0003ms, 1008ms total)
T0420 001:955 JLINK_IsHalted()  returns FALSE (0001ms, 1009ms total)
T0420 002:006 JLINK_IsHalted() -- CPU_ReadMem(2 bytes @ 0x20000000)  returns TRUE (0007ms, 1015ms total)
T0420 002:013 JLINK_ReadReg(R15 (PC))  returns 0x20000000 (0000ms, 1008ms total)
T0420 002:013 JLINK_ClrBPEx(BPHandle = 0x0000000A)  returns 0x00 (0000ms, 1008ms total)
T0420 002:013 JLINK_ReadReg(R0)  returns 0x00000000 (0000ms, 1008ms total)
T0420 002:014 JLINK_WriteMem(0x20000164, 0x0400 Bytes, ...) - Data: 5F 49 09 68 88 42 F7 D3 5C 48 04 60 5D 48 00 78 ... -- CPU_WriteMem(1024 bytes @ 0x20000164)  returns 0x400 (0008ms, 1016ms total)
T0420 002:022 JLINK_ReadMem (0x20000164, 0x0400 Bytes, ...) -- CPU_ReadMem(1088 bytes @ 0x20000140) -- Updating C cache (1088 bytes @ 0x20000140) -- Read from C cache (1024 bytes @ 0x20000164) - Data: 5F 49 09 68 88 42 F7 D3 5C 48 04 60 5D 48 00 78 ...  returns 0x00 (0008ms, 1024ms total)
T0420 002:030 JLINK_WriteReg(R0, 0x08001800)  returns 0x00 (0000ms, 1024ms total)
T0420 002:030 JLINK_WriteReg(R1, 0x00000400)  returns 0x00 (0000ms, 1024ms total)
T0420 002:030 JLINK_WriteReg(R2, 0x20000164)  returns 0x00 (0000ms, 1024ms total)
T0420 002:030 JLINK_WriteReg(R3, 0x00000000)  returns 0x00 (0000ms, 1024ms total)
T0420 002:030 JLINK_WriteReg(R4, 0x00000000)  returns 0x00 (0000ms, 1024ms total)
T0420 002:034 JLINK_WriteReg(R5, 0x00000000)  returns 0x00 (0000ms, 1028ms total)
T0420 002:034 JLINK_WriteReg(R6, 0x00000000)  returns 0x00 (0000ms, 1028ms total)
T0420 002:034 JLINK_WriteReg(R7, 0x00000000)  returns 0x00 (0000ms, 1028ms total)
T0420 002:034 JLINK_WriteReg(R8, 0x00000000)  returns 0x00 (0000ms, 1028ms total)
T0420 002:034 JLINK_WriteReg(R9, 0x20000160)  returns 0x00 (0000ms, 1028ms total)
T0420 002:034 JLINK_WriteReg(R10, 0x00000000)  returns 0x00 (0000ms, 1028ms total)
T0420 002:034 JLINK_WriteReg(R11, 0x00000000)  returns 0x00 (0001ms, 1029ms total)
T0420 002:035 JLINK_WriteReg(R12, 0x00000000)  returns 0x00 (0000ms, 1029ms total)
T0420 002:035 JLINK_WriteReg(R13 (SP), 0x20000800)  returns 0x00 (0000ms, 1029ms total)
T0420 002:035 JLINK_WriteReg(R14, 0x20000001)  returns 0x00 (0000ms, 1029ms total)
T0420 002:035 JLINK_WriteReg(R15 (PC), 0x200000F4)  returns 0x00 (0000ms, 1029ms total)
T0420 002:035 JLINK_WriteReg(XPSR, 0x01000000)  returns 0x00 (0000ms, 1029ms total)
T0420 002:035 JLINK_WriteReg(MSP, 0x20000800)  returns 0x00 (0000ms, 1029ms total)
T0420 002:035 JLINK_WriteReg(PSP, 0x20000800)  returns 0x00 (0000ms, 1029ms total)
T0420 002:035 JLINK_WriteReg(CFBP, 0x00000000)  returns 0x00 (0000ms, 1029ms total)
T0420 002:036 JLINK_SetBPEx(Addr = 0x20000000, Type = 0xFFFFFFF2)  returns 0x0000000B (0000ms, 1029ms total)
T0420 002:036 JLINK_Go() (0003ms, 1032ms total)
T0420 002:039 JLINK_IsHalted()  returns FALSE (0001ms, 1033ms total)
T0420 002:090 JLINK_IsHalted() -- CPU_ReadMem(2 bytes @ 0x20000000)  returns TRUE (0010ms, 1042ms total)
T0420 002:100 JLINK_ReadReg(R15 (PC))  returns 0x20000000 (0000ms, 1032ms total)
T0420 002:100 JLINK_ClrBPEx(BPHandle = 0x0000000B)  returns 0x00 (0000ms, 1032ms total)
T0420 002:100 JLINK_ReadReg(R0)  returns 0x00000000 (0000ms, 1032ms total)
T0420 002:101 JLINK_WriteMem(0x20000164, 0x0400 Bytes, ...) - Data: B8 FB F7 F8 08 FB 0C F8 B8 FB F6 F8 08 FB 02 F8 ... -- CPU_WriteMem(1024 bytes @ 0x20000164)  returns 0x400 (0008ms, 1040ms total)
T0420 002:109 JLINK_ReadMem (0x20000164, 0x0400 Bytes, ...) -- CPU_ReadMem(1088 bytes @ 0x20000140) -- Updating C cache (1088 bytes @ 0x20000140) -- Read from C cache (1024 bytes @ 0x20000164) - Data: B8 FB F7 F8 08 FB 0C F8 B8 FB F6 F8 08 FB 02 F8 ...  returns 0x00 (0008ms, 1048ms total)
T0420 002:117 JLINK_WriteReg(R0, 0x08001C00)  returns 0x00 (0000ms, 1048ms total)
T0420 002:117 JLINK_WriteReg(R1, 0x00000400)  returns 0x00 (0000ms, 1048ms total)
T0420 002:117 JLINK_WriteReg(R2, 0x20000164)  returns 0x00 (0000ms, 1048ms total)
T0420 002:117 JLINK_WriteReg(R3, 0x00000000)  returns 0x00 (0000ms, 1048ms total)
T0420 002:117 JLINK_WriteReg(R4, 0x00000000)  returns 0x00 (0000ms, 1048ms total)
T0420 002:118 JLINK_WriteReg(R5, 0x00000000)  returns 0x00 (0000ms, 1049ms total)
T0420 002:118 JLINK_WriteReg(R6, 0x00000000)  returns 0x00 (0000ms, 1049ms total)
T0420 002:118 JLINK_WriteReg(R7, 0x00000000)  returns 0x00 (0000ms, 1049ms total)
T0420 002:118 JLINK_WriteReg(R8, 0x00000000)  returns 0x00 (0000ms, 1049ms total)
T0420 002:118 JLINK_WriteReg(R9, 0x20000160)  returns 0x00 (0000ms, 1049ms total)
T0420 002:118 JLINK_WriteReg(R10, 0x00000000)  returns 0x00 (0000ms, 1049ms total)
T0420 002:118 JLINK_WriteReg(R11, 0x00000000)  returns 0x00 (0000ms, 1049ms total)
T0420 002:118 JLINK_WriteReg(R12, 0x00000000)  returns 0x00 (0001ms, 1050ms total)
T0420 002:119 JLINK_WriteReg(R13 (SP), 0x20000800)  returns 0x00 (0000ms, 1050ms total)
T0420 002:119 JLINK_WriteReg(R14, 0x20000001)  returns 0x00 (0000ms, 1050ms total)
T0420 002:119 JLINK_WriteReg(R15 (PC), 0x200000F4)  returns 0x00 (0000ms, 1050ms total)
T0420 002:119 JLINK_WriteReg(XPSR, 0x01000000)  returns 0x00 (0000ms, 1050ms total)
T0420 002:119 JLINK_WriteReg(MSP, 0x20000800)  returns 0x00 (0000ms, 1050ms total)
T0420 002:119 JLINK_WriteReg(PSP, 0x20000800)  returns 0x00 (0000ms, 1050ms total)
T0420 002:119 JLINK_WriteReg(CFBP, 0x00000000)  returns 0x00 (0000ms, 1050ms total)
T0420 002:119 JLINK_SetBPEx(Addr = 0x20000000, Type = 0xFFFFFFF2)  returns 0x0000000C (0000ms, 1050ms total)
T0420 002:119 JLINK_Go() (0004ms, 1054ms total)
T0420 002:123 JLINK_IsHalted()  returns FALSE (0001ms, 1055ms total)
T0420 002:174 JLINK_IsHalted() -- CPU_ReadMem(2 bytes @ 0x20000000)  returns TRUE (0007ms, 1061ms total)
T0420 002:181 JLINK_ReadReg(R15 (PC))  returns 0x20000000 (0000ms, 1054ms total)
T0420 002:181 JLINK_ClrBPEx(BPHandle = 0x0000000C)  returns 0x00 (0000ms, 1054ms total)
T0420 002:181 JLINK_ReadReg(R0)  returns 0x00000000 (0000ms, 1054ms total)
T0420 002:183 JLINK_WriteMem(0x20000164, 0x0400 Bytes, ...) - Data: 97 F9 10 BD 10 B5 16 48 00 68 40 F0 01 00 14 49 ... -- CPU_WriteMem(1024 bytes @ 0x20000164)  returns 0x400 (0007ms, 1061ms total)
T0420 002:190 JLINK_ReadMem (0x20000164, 0x0400 Bytes, ...) -- CPU_ReadMem(1088 bytes @ 0x20000140) -- Updating C cache (1088 bytes @ 0x20000140) -- Read from C cache (1024 bytes @ 0x20000164) - Data: 97 F9 10 BD 10 B5 16 48 00 68 40 F0 01 00 14 49 ...  returns 0x00 (0008ms, 1069ms total)
T0420 002:198 JLINK_WriteReg(R0, 0x08002000)  returns 0x00 (0000ms, 1069ms total)
T0420 002:198 JLINK_WriteReg(R1, 0x00000400)  returns 0x00 (0000ms, 1069ms total)
T0420 002:198 JLINK_WriteReg(R2, 0x20000164)  returns 0x00 (0000ms, 1069ms total)
T0420 002:198 JLINK_WriteReg(R3, 0x00000000)  returns 0x00 (0000ms, 1069ms total)
T0420 002:199 JLINK_WriteReg(R4, 0x00000000)  returns 0x00 (0000ms, 1069ms total)
T0420 002:199 JLINK_WriteReg(R5, 0x00000000)  returns 0x00 (0000ms, 1069ms total)
T0420 002:199 JLINK_WriteReg(R6, 0x00000000)  returns 0x00 (0000ms, 1069ms total)
T0420 002:199 JLINK_WriteReg(R7, 0x00000000)  returns 0x00 (0000ms, 1069ms total)
T0420 002:199 JLINK_WriteReg(R8, 0x00000000)  returns 0x00 (0001ms, 1070ms total)
T0420 002:200 JLINK_WriteReg(R9, 0x20000160)  returns 0x00 (0000ms, 1070ms total)
T0420 002:200 JLINK_WriteReg(R10, 0x00000000)  returns 0x00 (0000ms, 1070ms total)
T0420 002:200 JLINK_WriteReg(R11, 0x00000000)  returns 0x00 (0000ms, 1070ms total)
T0420 002:200 JLINK_WriteReg(R12, 0x00000000)  returns 0x00 (0000ms, 1070ms total)
T0420 002:200 JLINK_WriteReg(R13 (SP), 0x20000800)  returns 0x00 (0000ms, 1070ms total)
T0420 002:200 JLINK_WriteReg(R14, 0x20000001)  returns 0x00 (0000ms, 1070ms total)
T0420 002:200 JLINK_WriteReg(R15 (PC), 0x200000F4)  returns 0x00 (0000ms, 1070ms total)
T0420 002:200 JLINK_WriteReg(XPSR, 0x01000000)  returns 0x00 (0000ms, 1070ms total)
T0420 002:200 JLINK_WriteReg(MSP, 0x20000800)  returns 0x00 (0001ms, 1071ms total)
T0420 002:201 JLINK_WriteReg(PSP, 0x20000800)  returns 0x00 (0000ms, 1071ms total)
T0420 002:201 JLINK_WriteReg(CFBP, 0x00000000)  returns 0x00 (0000ms, 1071ms total)
T0420 002:201 JLINK_SetBPEx(Addr = 0x20000000, Type = 0xFFFFFFF2)  returns 0x0000000D (0000ms, 1071ms total)
T0420 002:201 JLINK_Go() (0003ms, 1074ms total)
T0420 002:204 JLINK_IsHalted()  returns FALSE (0001ms, 1075ms total)
T0420 002:255 JLINK_IsHalted() -- CPU_ReadMem(2 bytes @ 0x20000000)  returns TRUE (0007ms, 1081ms total)
T0420 002:262 JLINK_ReadReg(R15 (PC))  returns 0x20000000 (0000ms, 1074ms total)
T0420 002:262 JLINK_ClrBPEx(BPHandle = 0x0000000D)  returns 0x00 (0000ms, 1074ms total)
T0420 002:262 JLINK_ReadReg(R0)  returns 0x00000000 (0000ms, 1074ms total)
T0420 002:263 JLINK_WriteMem(0x20000164, 0x0400 Bytes, ...) - Data: 33 40 14 B1 0B B1 01 20 00 E0 00 20 70 BD F0 B5 ... -- CPU_WriteMem(1024 bytes @ 0x20000164)  returns 0x400 (0008ms, 1082ms total)
T0420 002:271 JLINK_ReadMem (0x20000164, 0x0400 Bytes, ...) -- CPU_ReadMem(1088 bytes @ 0x20000140) -- Updating C cache (1088 bytes @ 0x20000140) -- Read from C cache (1024 bytes @ 0x20000164) - Data: 33 40 14 B1 0B B1 01 20 00 E0 00 20 70 BD F0 B5 ...  returns 0x00 (0008ms, 1090ms total)
T0420 002:279 JLINK_WriteReg(R0, 0x08002400)  returns 0x00 (0000ms, 1090ms total)
T0420 002:279 JLINK_WriteReg(R1, 0x00000400)  returns 0x00 (0000ms, 1090ms total)
T0420 002:279 JLINK_WriteReg(R2, 0x20000164)  returns 0x00 (0000ms, 1090ms total)
T0420 002:279 JLINK_WriteReg(R3, 0x00000000)  returns 0x00 (0000ms, 1090ms total)
T0420 002:279 JLINK_WriteReg(R4, 0x00000000)  returns 0x00 (0001ms, 1091ms total)
T0420 002:280 JLINK_WriteReg(R5, 0x00000000)  returns 0x00 (0000ms, 1091ms total)
T0420 002:280 JLINK_WriteReg(R6, 0x00000000)  returns 0x00 (0000ms, 1091ms total)
T0420 002:280 JLINK_WriteReg(R7, 0x00000000)  returns 0x00 (0000ms, 1091ms total)
T0420 002:280 JLINK_WriteReg(R8, 0x00000000)  returns 0x00 (0000ms, 1091ms total)
T0420 002:280 JLINK_WriteReg(R9, 0x20000160)  returns 0x00 (0000ms, 1091ms total)
T0420 002:280 JLINK_WriteReg(R10, 0x00000000)  returns 0x00 (0000ms, 1091ms total)
T0420 002:280 JLINK_WriteReg(R11, 0x00000000)  returns 0x00 (0000ms, 1091ms total)
T0420 002:280 JLINK_WriteReg(R12, 0x00000000)  returns 0x00 (0004ms, 1095ms total)
T0420 002:284 JLINK_WriteReg(R13 (SP), 0x20000800)  returns 0x00 (0000ms, 1095ms total)
T0420 002:284 JLINK_WriteReg(R14, 0x20000001)  returns 0x00 (0000ms, 1095ms total)
T0420 002:284 JLINK_WriteReg(R15 (PC), 0x200000F4)  returns 0x00 (0000ms, 1095ms total)
T0420 002:284 JLINK_WriteReg(XPSR, 0x01000000)  returns 0x00 (0000ms, 1095ms total)
T0420 002:284 JLINK_WriteReg(MSP, 0x20000800)  returns 0x00 (0001ms, 1096ms total)
T0420 002:285 JLINK_WriteReg(PSP, 0x20000800)  returns 0x00 (0000ms, 1096ms total)
T0420 002:285 JLINK_WriteReg(CFBP, 0x00000000)  returns 0x00 (0000ms, 1096ms total)
T0420 002:285 JLINK_SetBPEx(Addr = 0x20000000, Type = 0xFFFFFFF2)  returns 0x0000000E (0000ms, 1096ms total)
T0420 002:285 JLINK_Go() (0003ms, 1099ms total)
T0420 002:288 JLINK_IsHalted()  returns FALSE (0001ms, 1100ms total)
T0420 002:339 JLINK_IsHalted() -- CPU_ReadMem(2 bytes @ 0x20000000)  returns TRUE (0007ms, 1106ms total)
T0420 002:346 JLINK_ReadReg(R15 (PC))  returns 0x20000000 (0000ms, 1099ms total)
T0420 002:346 JLINK_ClrBPEx(BPHandle = 0x0000000E)  returns 0x00 (0000ms, 1099ms total)
T0420 002:346 JLINK_ReadReg(R0)  returns 0x00000000 (0000ms, 1099ms total)
T0420 002:347 JLINK_WriteMem(0x20000164, 0x0400 Bytes, ...) - Data: 7F 1C 87 42 FC DB 1B F8 07 10 00 29 F8 D1 DD E9 ... -- CPU_WriteMem(1024 bytes @ 0x20000164)  returns 0x400 (0008ms, 1107ms total)
T0420 002:355 JLINK_ReadMem (0x20000164, 0x0400 Bytes, ...) -- CPU_ReadMem(1088 bytes @ 0x20000140) -- Updating C cache (1088 bytes @ 0x20000140) -- Read from C cache (1024 bytes @ 0x20000164) - Data: 7F 1C 87 42 FC DB 1B F8 07 10 00 29 F8 D1 DD E9 ...  returns 0x00 (0008ms, 1115ms total)
T0420 002:363 JLINK_WriteReg(R0, 0x08002800)  returns 0x00 (0000ms, 1115ms total)
T0420 002:363 JLINK_WriteReg(R1, 0x00000400)  returns 0x00 (0000ms, 1115ms total)
T0420 002:363 JLINK_WriteReg(R2, 0x20000164)  returns 0x00 (0000ms, 1115ms total)
T0420 002:363 JLINK_WriteReg(R3, 0x00000000)  returns 0x00 (0000ms, 1115ms total)
T0420 002:363 JLINK_WriteReg(R4, 0x00000000)  returns 0x00 (0000ms, 1115ms total)
T0420 002:363 JLINK_WriteReg(R5, 0x00000000)  returns 0x00 (0001ms, 1116ms total)
T0420 002:364 JLINK_WriteReg(R6, 0x00000000)  returns 0x00 (0000ms, 1116ms total)
T0420 002:364 JLINK_WriteReg(R7, 0x00000000)  returns 0x00 (0000ms, 1116ms total)
T0420 002:364 JLINK_WriteReg(R8, 0x00000000)  returns 0x00 (0000ms, 1116ms total)
T0420 002:364 JLINK_WriteReg(R9, 0x20000160)  returns 0x00 (0000ms, 1116ms total)
T0420 002:364 JLINK_WriteReg(R10, 0x00000000)  returns 0x00 (0000ms, 1116ms total)
T0420 002:364 JLINK_WriteReg(R11, 0x00000000)  returns 0x00 (0000ms, 1116ms total)
T0420 002:364 JLINK_WriteReg(R12, 0x00000000)  returns 0x00 (0000ms, 1116ms total)
T0420 002:364 JLINK_WriteReg(R13 (SP), 0x20000800)  returns 0x00 (0001ms, 1117ms total)
T0420 002:365 JLINK_WriteReg(R14, 0x20000001)  returns 0x00 (0000ms, 1117ms total)
T0420 002:365 JLINK_WriteReg(R15 (PC), 0x200000F4)  returns 0x00 (0000ms, 1117ms total)
T0420 002:365 JLINK_WriteReg(XPSR, 0x01000000)  returns 0x00 (0000ms, 1117ms total)
T0420 002:365 JLINK_WriteReg(MSP, 0x20000800)  returns 0x00 (0000ms, 1117ms total)
T0420 002:365 JLINK_WriteReg(PSP, 0x20000800)  returns 0x00 (0000ms, 1117ms total)
T0420 002:365 JLINK_WriteReg(CFBP, 0x00000000)  returns 0x00 (0000ms, 1117ms total)
T0420 002:365 JLINK_SetBPEx(Addr = 0x20000000, Type = 0xFFFFFFF2)  returns 0x0000000F (0000ms, 1117ms total)
T0420 002:365 JLINK_Go() (0004ms, 1121ms total)
T0420 002:369 JLINK_IsHalted()  returns FALSE (0001ms, 1122ms total)
T0420 002:420 JLINK_IsHalted() -- CPU_ReadMem(2 bytes @ 0x20000000)  returns TRUE (0007ms, 1128ms total)
T0420 002:427 JLINK_ReadReg(R15 (PC))  returns 0x20000000 (0000ms, 1121ms total)
T0420 002:427 JLINK_ClrBPEx(BPHandle = 0x0000000F)  returns 0x00 (0000ms, 1121ms total)
T0420 002:427 JLINK_ReadReg(R0)  returns 0x00000000 (0000ms, 1121ms total)
T0420 002:428 JLINK_WriteMem(0x20000164, 0x0400 Bytes, ...) - Data: 9A 7F 01 D2 00 BF 00 BF 00 BF 68 7B 20 B9 3D 48 ... -- CPU_WriteMem(1024 bytes @ 0x20000164)  returns 0x400 (0008ms, 1129ms total)
T0420 002:436 JLINK_ReadMem (0x20000164, 0x0400 Bytes, ...) -- CPU_ReadMem(1088 bytes @ 0x20000140) -- Updating C cache (1088 bytes @ 0x20000140) -- Read from C cache (1024 bytes @ 0x20000164) - Data: 9A 7F 01 D2 00 BF 00 BF 00 BF 68 7B 20 B9 3D 48 ...  returns 0x00 (0008ms, 1137ms total)
T0420 002:444 JLINK_WriteReg(R0, 0x08002C00)  returns 0x00 (0000ms, 1137ms total)
T0420 002:444 JLINK_WriteReg(R1, 0x00000400)  returns 0x00 (0000ms, 1137ms total)
T0420 002:444 JLINK_WriteReg(R2, 0x20000164)  returns 0x00 (0000ms, 1137ms total)
T0420 002:444 JLINK_WriteReg(R3, 0x00000000)  returns 0x00 (0000ms, 1137ms total)
T0420 002:444 JLINK_WriteReg(R4, 0x00000000)  returns 0x00 (0000ms, 1137ms total)
T0420 002:444 JLINK_WriteReg(R5, 0x00000000)  returns 0x00 (0000ms, 1137ms total)
T0420 002:445 JLINK_WriteReg(R6, 0x00000000)  returns 0x00 (0000ms, 1138ms total)
T0420 002:445 JLINK_WriteReg(R7, 0x00000000)  returns 0x00 (0000ms, 1138ms total)
T0420 002:445 JLINK_WriteReg(R8, 0x00000000)  returns 0x00 (0000ms, 1138ms total)
T0420 002:445 JLINK_WriteReg(R9, 0x20000160)  returns 0x00 (0000ms, 1138ms total)
T0420 002:445 JLINK_WriteReg(R10, 0x00000000)  returns 0x00 (0000ms, 1138ms total)
T0420 002:445 JLINK_WriteReg(R11, 0x00000000)  returns 0x00 (0000ms, 1138ms total)
T0420 002:445 JLINK_WriteReg(R12, 0x00000000)  returns 0x00 (0000ms, 1138ms total)
T0420 002:445 JLINK_WriteReg(R13 (SP), 0x20000800)  returns 0x00 (0000ms, 1138ms total)
T0420 002:445 JLINK_WriteReg(R14, 0x20000001)  returns 0x00 (0001ms, 1139ms total)
T0420 002:446 JLINK_WriteReg(R15 (PC), 0x200000F4)  returns 0x00 (0000ms, 1139ms total)
T0420 002:446 JLINK_WriteReg(XPSR, 0x01000000)  returns 0x00 (0000ms, 1139ms total)
T0420 002:446 JLINK_WriteReg(MSP, 0x20000800)  returns 0x00 (0000ms, 1139ms total)
T0420 002:446 JLINK_WriteReg(PSP, 0x20000800)  returns 0x00 (0000ms, 1139ms total)
T0420 002:446 JLINK_WriteReg(CFBP, 0x00000000)  returns 0x00 (0000ms, 1139ms total)
T0420 002:446 JLINK_SetBPEx(Addr = 0x20000000, Type = 0xFFFFFFF2)  returns 0x00000010 (0000ms, 1139ms total)
T0420 002:446 JLINK_Go() (0003ms, 1142ms total)
T0420 002:449 JLINK_IsHalted()  returns FALSE (0001ms, 1143ms total)
T0420 002:500 JLINK_IsHalted() -- CPU_ReadMem(2 bytes @ 0x20000000)  returns TRUE (0007ms, 1149ms total)
T0420 002:507 JLINK_ReadReg(R15 (PC))  returns 0x20000000 (0000ms, 1142ms total)
T0420 002:507 JLINK_ClrBPEx(BPHandle = 0x00000010)  returns 0x00 (0000ms, 1142ms total)
T0420 002:507 JLINK_ReadReg(R0)  returns 0x00000000 (0000ms, 1142ms total)
T0420 002:508 JLINK_WriteMem(0x20000164, 0x0400 Bytes, ...) - Data: FA F8 07 46 1F B3 74 6A 28 8B C0 F1 41 09 00 BF ... -- CPU_WriteMem(1024 bytes @ 0x20000164)  returns 0x400 (0008ms, 1150ms total)
T0420 002:516 JLINK_ReadMem (0x20000164, 0x0400 Bytes, ...) -- CPU_ReadMem(1088 bytes @ 0x20000140) -- Updating C cache (1088 bytes @ 0x20000140) -- Read from C cache (1024 bytes @ 0x20000164) - Data: FA F8 07 46 1F B3 74 6A 28 8B C0 F1 41 09 00 BF ...  returns 0x00 (0008ms, 1158ms total)
